Logging started @ 2025-10-02 14:10
IAR C-SPY Debugger for Arm version 9.70.1.13552
DLL version: V8.30 , Compiled: Apr 30 2025 12:05:50
T3898 379:622.624   Firmware: J-Link EDU Mini V1 compiled Jul  8 2025 10:06:04
T3898 379:623.616   Firmware: J-Link EDU Mini V1 compiled Jul  8 2025 10:06:04
T3898 379:652.160   Hardware: V1.00
T3898 379:652.160   S/N: 801023986
T3898 379:652.160   OEM: SEGGER
T3898 379:652.160   Feature(s): FlashBP, GDB
T3898 379:653.312   Bootloader: 2016 Nov 30
T3898 379:653.792   USB speed mode: Full speed (12 MBit/s)
T3898 379:654.208   TELNET listener socket opened on port 19021
T3898 379:654.336   WEBSRV WEBSRV_Init(): Starting webserver thread(s)
T3898 379:654.432   WEBSRV Webserver running on local port 19080
T3898 379:654.496   Looking for J-Link GUI Server exe at: C:\iar\ewarm-9.70.1\arm\bin\JLinkGUIServer.exe
T3898 379:654.592   Looking for J-Link GUI Server exe at: C:\Program Files\SEGGER\JLink_V866\JLinkGUIServer.exe
T3898 379:654.592   Forking J-Link GUI Server: C:\Program Files\SEGGER\JLink_V866\JLinkGUIServer.exe
T3898 379:687.104   J-Link GUI Server info: "J-Link GUI server V8.66 "
T3898 379:692.992 - 73.943ms returns "O.K."
T3898 379:694.432 JLINK_ExecCommand("ProjectFile = C:\Progetti\SVN_Repos\SCAME_GD_RED\SCAME_CONTROL_UNIT\trunk\EWARM\settings\ScameControlUnit_TARGET_DBG_HW_MP28947.jlink", ...). 
T3898 379:712.192 - 17.717ms returns 0x00
T3898 379:712.320 JLINK_ExecCommand("device = GD32F470xG", ...). 
T3898 379:713.856   Device "GD32F470IGH6" selected.
T3898 379:714.336 - 1.997ms returns 0x00
T3898 379:714.368 JLINK_GetDLLVersion()
T3898 379:714.368 - 0.005ms returns 83000
T3898 379:714.368 JLINK_GetCompileDateTime()
T3898 379:714.400 - 0.005ms 
T3898 379:714.464 JLINK_GetFirmwareString(...)
T3898 379:714.464 - 0.006ms 
T3898 379:714.496 JLINK_GetSN()
T3898 379:714.496 - 0.006ms returns 801023986
T3898 379:714.848 JLINK_TIF_Select(JLINKARM_TIF_SWD)
T3898 379:715.552 - 1.022ms returns 0x00
T3898 379:715.616 JLINK_EMU_GetProductId()
T3898 379:715.648 - 0.009ms 
T3898 379:715.648 JLINK_SelectDeviceFamily(14)
T3898 379:715.648 - 0.008ms 
T3898 379:715.680 JLINK_SetSpeed(10000)
T3898 379:715.808 - 0.147ms 
T3898 379:715.840 JLINK_SetResetType(JLINKARM_RESET_TYPE_NORMAL)
T3898 379:715.840 - 0.006ms returns JLINKARM_RESET_TYPE_NORMAL
T3898 379:715.872 JLINK_ExecCommand("SetResetPulseLen = 200", ...). 
T3898 379:715.872 - 0.003ms returns 0x14
T3898 379:715.872 JLINK_SetResetDelay(0)
T3898 379:715.904 - 0.005ms 
T3898 379:715.904 JLINK_ResetPullsRESET(ON)
T3898 379:715.904 - 0.005ms 
T3898 379:715.904 JLINK_Reset()
T3898 379:716.160   InitTarget() start
T3898 379:716.160    J-Link Script File: Executing InitTarget()
T3898 379:716.192   SWD selected. Executing JTAG -> SWD switching sequence.
T3898 379:718.368     No Protection is set.
T3898 379:718.400   InitTarget() end - Took 2.21ms
T3898 379:719.104   Found SW-DP with ID 0x2BA01477
T3898 379:721.504   DPIDR: 0x2BA01477
T3898 379:721.536   CoreSight SoC-400 or earlier
T3898 379:721.536   Scanning AP map to find all available APs
T3898 379:722.144   AP[1]: Stopped AP scan as end of AP map has been reached
T3898 379:722.176   AP[0]: AHB-AP (IDR: 0x24770011, ADDR: 0x00000000)
T3898 379:722.176   Iterating through AP map to find AHB-AP to use
T3898 379:723.200   AP[0]: Core found
T3898 379:723.264   AP[0]: AHB-AP ROM base: 0xE00FF000
T3898 379:723.840   CPUID register: 0x410FC241. Implementer code: 0x41 (ARM)
T3898 379:723.840   Found Cortex-M4 r0p1, Little endian.
T3898 379:724.352   -- Max. mem block: 0x00002B88
T3898 379:724.832   CPU_ReadMem(4 bytes @ 0xE000EDF0)
T3898 379:725.216   CPU_WriteMem(4 bytes @ 0xE000EDF0)
T3898 379:725.600   CPU_ReadMem(4 bytes @ 0xE0002000)
T3898 379:725.952   FPUnit: 6 code (BP) slots and 2 literal slots
T3898 379:725.952   CPU_ReadMem(4 bytes @ 0xE000EDFC)
T3898 379:726.336   CPU_WriteMem(4 bytes @ 0xE000EDFC)
T3898 379:726.688   CPU_ReadMem(4 bytes @ 0xE0001000)
T3898 379:727.040   CPU_WriteMem(4 bytes @ 0xE0001000)
T3898 379:727.424   CPU_ReadMem(4 bytes @ 0xE000ED88)
T3898 379:727.808   CPU_WriteMem(4 bytes @ 0xE000ED88)
T3898 379:728.160   CPU_ReadMem(4 bytes @ 0xE000ED88)
T3898 379:728.448   CPU_WriteMem(4 bytes @ 0xE000ED88)
T3898 379:728.832   CoreSight components:
T3898 379:728.864   ROMTbl[0] @ E00FF000
T3898 379:728.896   CPU_ReadMem(64 bytes @ 0xE00FF000)
T3898 379:729.600   CPU_ReadMem(32 bytes @ 0xE000EFE0)
T3898 379:730.176   [0][0]: E000E000 CID B105E00D PID 000BB00C SCS-M7
T3898 379:730.176   CPU_ReadMem(32 bytes @ 0xE0001FE0)
T3898 379:730.720   [0][1]: E0001000 CID B105E00D PID 003BB002 DWT
T3898 379:730.720   CPU_ReadMem(32 bytes @ 0xE0002FE0)
T3898 379:731.264   [0][2]: E0002000 CID B105E00D PID 002BB003 FPB
T3898 379:731.264   CPU_ReadMem(32 bytes @ 0xE0000FE0)
T3898 379:731.776   [0][3]: E0000000 CID B105E00D PID 003BB001 ITM
T3898 379:731.776   CPU_ReadMem(32 bytes @ 0xE0040FE0)
T3898 379:732.320   [0][4]: E0040000 CID B105900D PID 000BB9A1 TPIU
T3898 379:732.352   CPU_ReadMem(32 bytes @ 0xE0041FE0)
T3898 379:732.896   [0][5]: E0041000 CID 00000000 PID 00000000 ???
T3898 379:732.928   JLINK_GetResetTypeDesc
T3898 379:732.928   - 0.007ms 
T3898 379:732.960   Reset type: NORMAL (https://wiki.segger.com/J-Link_Reset_Strategies)
T3898 379:732.992   CPU is running
T3898 379:732.992   CPU_WriteMem(4 bytes @ 0xE000EDF0)
T3898 379:733.376   CPU is running
T3898 379:733.376   CPU_WriteMem(4 bytes @ 0xE000EDFC)
T3898 379:733.760   Reset: Halt core after reset via DEMCR.VC_CORERESET.
T3898 379:734.272   Reset: Reset device via AIRCR.SYSRESETREQ.
T3898 379:734.272   CPU is running
T3898 379:734.272   CPU_WriteMem(4 bytes @ 0xE000ED0C)
T3898 379:787.712   CPU_ReadMem(4 bytes @ 0xE000EDF0)
T3898 379:788.096   CPU_ReadMem(4 bytes @ 0xE000EDF0)
T3898 379:791.328   CPU_WriteMem(4 bytes @ 0xE000EDFC)
T3898 379:797.056   CPU_ReadMem(4 bytes @ 0xE000EDF0)
T3898 379:800.384   CPU_WriteMem(4 bytes @ 0xE0002000)
T3898 379:800.768   CPU_ReadMem(4 bytes @ 0xE000EDFC)
T3898 379:801.120   CPU_ReadMem(4 bytes @ 0xE0001000)
T3898 379:801.440 - 85.536ms 
T3898 379:801.568 JLINK_IsHalted()
T3898 379:801.568 - 0.008ms returns TRUE
T3898 379:801.568 JLINK_Halt()
T3898 379:801.600 - 0.004ms returns 0x00
T3898 379:802.944 JLINK_ReadMemU32(0xE000ED00, 0x1 Items)
T3898 379:803.008   CPU_ReadMem(4 bytes @ 0xE000ED00)
T3898 379:803.328   Data:  41 C2 0F 41
T3898 379:803.328   Debug reg: CPUID
T3898 379:803.328 - 0.380ms returns 1 (0x1)
T3898 379:803.360 JLINK_ReadMemU32(0xE00FF000, 0x1 Items)
T3898 379:803.360   CPU_ReadMem(4 bytes @ 0xE00FF000)
T3898 379:803.680   Data:  03 F0 F0 FF
T3898 379:803.712 - 0.329ms returns 1 (0x1)
T3898 379:803.712 JLINK_ReadMemU32(0xE00FF004, 0x1 Items)
T3898 379:803.712   CPU_ReadMem(4 bytes @ 0xE00FF004)
T3898 379:804.032   Data:  03 20 F0 FF
T3898 379:804.032 - 0.339ms returns 1 (0x1)
T3898 379:804.032 JLINK_ReadMemU32(0xE00FF008, 0x1 Items)
T3898 379:804.064   CPU_ReadMem(4 bytes @ 0xE00FF008)
T3898 379:804.352   Data:  03 30 F0 FF
T3898 379:804.352 - 0.325ms returns 1 (0x1)
T3898 379:804.352 JLINK_ReadMemU32(0xE00FF00C, 0x1 Items)
T3898 379:804.384   CPU_ReadMem(4 bytes @ 0xE00FF00C)
T3898 379:804.704   Data:  03 10 F0 FF
T3898 379:804.704 - 0.331ms returns 1 (0x1)
T3898 379:804.736 JLINK_ReadMemU32(0xE00FF010, 0x1 Items)
T3898 379:804.736   CPU_ReadMem(4 bytes @ 0xE00FF010)
T3898 379:805.024   Data:  03 10 F4 FF
T3898 379:805.024 - 0.323ms returns 1 (0x1)
T3898 379:805.024 JLINK_ReadMemU32(0xE00FF014, 0x1 Items)
T3898 379:805.056   CPU_ReadMem(4 bytes @ 0xE00FF014)
T3898 379:805.376   Data:  03 20 F4 FF
T3898 379:805.376 - 0.324ms returns 1 (0x1)
T3898 379:805.376 JLINK_ReadMemU32(0xE00FF018, 0x1 Items)
T3898 379:805.376   CPU_ReadMem(4 bytes @ 0xE00FF018)
T3898 379:805.728   Data:  00 00 00 00
T3898 379:805.760 - 0.369ms returns 1 (0x1)
T3898 379:805.760 JLINK_ReadMemU32(0xE00FFFD0, 0x1 Items)
T3898 379:805.760   CPU_ReadMem(4 bytes @ 0xE00FFFD0)
T3898 379:806.144   Data:  07 00 00 00
T3898 379:806.144 - 0.392ms returns 1 (0x1)
T3898 379:806.144 JLINK_ReadMemU32(0xE00FFFD4, 0x1 Items)
T3898 379:806.144   CPU_ReadMem(4 bytes @ 0xE00FFFD4)
T3898 379:806.528   Data:  00 00 00 00
T3898 379:806.528 - 0.399ms returns 1 (0x1)
T3898 379:806.560 JLINK_ReadMemU32(0xE00FFFD8, 0x1 Items)
T3898 379:806.560   CPU_ReadMem(4 bytes @ 0xE00FFFD8)
T3898 379:806.880   Data:  00 00 00 00
T3898 379:806.912 - 0.332ms returns 1 (0x1)
T3898 379:806.912 JLINK_ReadMemU32(0xE00FFFDC, 0x1 Items)
T3898 379:806.912   CPU_ReadMem(4 bytes @ 0xE00FFFDC)
T3898 379:807.264   Data:  00 00 00 00
T3898 379:807.264 - 0.364ms returns 1 (0x1)
T3898 379:807.296 JLINK_ReadMemU32(0xE00FFFE0, 0x1 Items)
T3898 379:807.296   CPU_ReadMem(4 bytes @ 0xE00FFFE0)
T3898 379:807.584   Data:  71 00 00 00
T3898 379:807.584 - 0.324ms returns 1 (0x1)
T3898 379:807.616 JLINK_ReadMemU32(0xE00FFFE4, 0x1 Items)
T3898 379:807.616   CPU_ReadMem(4 bytes @ 0xE00FFFE4)
T3898 379:807.936   Data:  11 00 00 00
T3898 379:807.936 - 0.329ms returns 1 (0x1)
T3898 379:807.936 JLINK_ReadMemU32(0xE00FFFE8, 0x1 Items)
T3898 379:807.936   CPU_ReadMem(4 bytes @ 0xE00FFFE8)
T3898 379:808.320   Data:  0D 00 00 00
T3898 379:808.320 - 0.398ms returns 1 (0x1)
T3898 379:808.320 JLINK_ReadMemU32(0xE00FFFEC, 0x1 Items)
T3898 379:808.352   CPU_ReadMem(4 bytes @ 0xE00FFFEC)
T3898 379:808.640   Data:  00 00 00 00
T3898 379:808.672 - 0.314ms returns 1 (0x1)
T3898 379:808.672 JLINK_ReadMemU32(0xE00FFFF0, 0x1 Items)
T3898 379:808.672   CPU_ReadMem(4 bytes @ 0xE00FFFF0)
T3898 379:808.960   Data:  0D 00 00 00
T3898 379:808.992 - 0.325ms returns 1 (0x1)
T3898 379:808.992 JLINK_ReadMemU32(0xE00FFFF4, 0x1 Items)
T3898 379:808.992   CPU_ReadMem(4 bytes @ 0xE00FFFF4)
T3898 379:809.344   Data:  10 00 00 00
T3898 379:809.344 - 0.341ms returns 1 (0x1)
T3898 379:809.344 JLINK_ReadMemU32(0xE00FFFF8, 0x1 Items)
T3898 379:809.344   CPU_ReadMem(4 bytes @ 0xE00FFFF8)
T3898 379:809.696   Data:  05 00 00 00
T3898 379:809.696 - 0.349ms returns 1 (0x1)
T3898 379:809.696 JLINK_ReadMemU32(0xE00FFFFC, 0x1 Items)
T3898 379:809.728   CPU_ReadMem(4 bytes @ 0xE00FFFFC)
T3898 379:810.016   Data:  B1 00 00 00
T3898 379:810.016 - 0.332ms returns 1 (0x1)
T3898 379:810.048 JLINK_ReadMemU32(0xE000EFD0, 0x1 Items)
T3898 379:810.048   CPU_ReadMem(4 bytes @ 0xE000EFD0)
T3898 379:810.368   Data:  04 00 00 00
T3898 379:810.368 - 0.311ms returns 1 (0x1)
T3898 379:810.368 JLINK_ReadMemU32(0xE000EFD4, 0x1 Items)
T3898 379:810.368   CPU_ReadMem(4 bytes @ 0xE000EFD4)
T3898 379:810.688   Data:  00 00 00 00
T3898 379:810.688 - 0.329ms returns 1 (0x1)
T3898 379:810.688 JLINK_ReadMemU32(0xE000EFD8, 0x1 Items)
T3898 379:810.688   CPU_ReadMem(4 bytes @ 0xE000EFD8)
T3898 379:811.040   Data:  00 00 00 00
T3898 379:811.040 - 0.361ms returns 1 (0x1)
T3898 379:811.072 JLINK_ReadMemU32(0xE000EFDC, 0x1 Items)
T3898 379:811.072   CPU_ReadMem(4 bytes @ 0xE000EFDC)
T3898 379:811.392   Data:  00 00 00 00
T3898 379:811.392 - 0.326ms returns 1 (0x1)
T3898 379:811.392 JLINK_ReadMemU32(0xE000EFE0, 0x1 Items)
T3898 379:811.392   CPU_ReadMem(4 bytes @ 0xE000EFE0)
T3898 379:811.712   Data:  0C 00 00 00
T3898 379:811.712 - 0.322ms returns 1 (0x1)
T3898 379:811.712 JLINK_ReadMemU32(0xE000EFE4, 0x1 Items)
T3898 379:811.744   CPU_ReadMem(4 bytes @ 0xE000EFE4)
T3898 379:812.096   Data:  B0 00 00 00
T3898 379:812.128 - 0.392ms returns 1 (0x1)
T3898 379:812.128 JLINK_ReadMemU32(0xE000EFE8, 0x1 Items)
T3898 379:812.128   CPU_ReadMem(4 bytes @ 0xE000EFE8)
T3898 379:812.448   Data:  0B 00 00 00
T3898 379:812.448 - 0.332ms returns 1 (0x1)
T3898 379:812.448 JLINK_ReadMemU32(0xE000EFEC, 0x1 Items)
T3898 379:812.480   CPU_ReadMem(4 bytes @ 0xE000EFEC)
T3898 379:812.800   Data:  00 00 00 00
T3898 379:812.800 - 0.321ms returns 1 (0x1)
T3898 379:812.800 JLINK_ReadMemU32(0xE000EFF0, 0x1 Items)
T3898 379:812.800   CPU_ReadMem(4 bytes @ 0xE000EFF0)
T3898 379:813.120   Data:  0D 00 00 00
T3898 379:813.120 - 0.327ms returns 1 (0x1)
T3898 379:813.120 JLINK_ReadMemU32(0xE000EFF4, 0x1 Items)
T3898 379:813.120   CPU_ReadMem(4 bytes @ 0xE000EFF4)
T3898 379:813.440   Data:  E0 00 00 00
T3898 379:813.440 - 0.337ms returns 1 (0x1)
T3898 379:813.472 JLINK_ReadMemU32(0xE000EFF8, 0x1 Items)
T3898 379:813.472   CPU_ReadMem(4 bytes @ 0xE000EFF8)
T3898 379:813.792   Data:  05 00 00 00
T3898 379:813.792 - 0.328ms returns 1 (0x1)
T3898 379:813.824 JLINK_ReadMemU32(0xE000EFFC, 0x1 Items)
T3898 379:813.824   CPU_ReadMem(4 bytes @ 0xE000EFFC)
T3898 379:814.144   Data:  B1 00 00 00
T3898 379:814.144 - 0.345ms returns 1 (0x1)
T3898 379:814.144 JLINK_ReadMemU32(0xE0001FD0, 0x1 Items)
T3898 379:814.176   CPU_ReadMem(4 bytes @ 0xE0001FD0)
T3898 379:814.464   Data:  04 00 00 00
T3898 379:814.496   Debug reg: DWT_PID4
T3898 379:814.496 - 0.345ms returns 1 (0x1)
T3898 379:814.496 JLINK_ReadMemU32(0xE0001FD4, 0x1 Items)
T3898 379:814.496   CPU_ReadMem(4 bytes @ 0xE0001FD4)
T3898 379:814.848   Data:  00 00 00 00
T3898 379:814.848   Debug reg: DWT_PID5
T3898 379:814.848 - 0.338ms returns 1 (0x1)
T3898 379:814.848 JLINK_ReadMemU32(0xE0001FD8, 0x1 Items)
T3898 379:814.848   CPU_ReadMem(4 bytes @ 0xE0001FD8)
T3898 379:815.200   Data:  00 00 00 00
T3898 379:815.200   Debug reg: DWT_PID6
T3898 379:815.232 - 0.357ms returns 1 (0x1)
T3898 379:815.232 JLINK_ReadMemU32(0xE0001FDC, 0x1 Items)
T3898 379:815.232   CPU_ReadMem(4 bytes @ 0xE0001FDC)
T3898 379:815.552   Data:  00 00 00 00
T3898 379:815.552   Debug reg: DWT_PID7
T3898 379:815.584 - 0.349ms returns 1 (0x1)
T3898 379:815.584 JLINK_ReadMemU32(0xE0001FE0, 0x1 Items)
T3898 379:815.584   CPU_ReadMem(4 bytes @ 0xE0001FE0)
T3898 379:815.904   Data:  02 00 00 00
T3898 379:815.904   Debug reg: DWT_PID[0]
T3898 379:815.904 - 0.341ms returns 1 (0x1)
T3898 379:815.904 JLINK_ReadMemU32(0xE0001FE4, 0x1 Items)
T3898 379:815.936   CPU_ReadMem(4 bytes @ 0xE0001FE4)
T3898 379:816.256   Data:  B0 00 00 00
T3898 379:816.256   Debug reg: DWT_PID[1]
T3898 379:816.256 - 0.335ms returns 1 (0x1)
T3898 379:816.256 JLINK_ReadMemU32(0xE0001FE8, 0x1 Items)
T3898 379:816.256   CPU_ReadMem(4 bytes @ 0xE0001FE8)
T3898 379:816.608   Data:  3B 00 00 00
T3898 379:816.608   Debug reg: DWT_PID[2]
T3898 379:816.608 - 0.350ms returns 1 (0x1)
T3898 379:816.640 JLINK_ReadMemU32(0xE0001FEC, 0x1 Items)
T3898 379:816.640   CPU_ReadMem(4 bytes @ 0xE0001FEC)
T3898 379:816.960   Data:  00 00 00 00
T3898 379:816.960   Debug reg: DWT_PID[3]
T3898 379:816.960 - 0.338ms returns 1 (0x1)
T3898 379:816.960 JLINK_ReadMemU32(0xE0001FF0, 0x1 Items)
T3898 379:816.960   CPU_ReadMem(4 bytes @ 0xE0001FF0)
T3898 379:817.344   Data:  0D 00 00 00
T3898 379:817.344   Debug reg: DWT_CID[0]
T3898 379:817.344 - 0.386ms returns 1 (0x1)
T3898 379:817.376 JLINK_ReadMemU32(0xE0001FF4, 0x1 Items)
T3898 379:817.376   CPU_ReadMem(4 bytes @ 0xE0001FF4)
T3898 379:817.664   Data:  E0 00 00 00
T3898 379:817.664   Debug reg: DWT_CID[1]
T3898 379:817.664 - 0.331ms returns 1 (0x1)
T3898 379:817.696 JLINK_ReadMemU32(0xE0001FF8, 0x1 Items)
T3898 379:817.696   CPU_ReadMem(4 bytes @ 0xE0001FF8)
T3898 379:818.112   Data:  05 00 00 00
T3898 379:818.144   Debug reg: DWT_CID[2]
T3898 379:818.144 - 0.433ms returns 1 (0x1)
T3898 379:818.144 JLINK_ReadMemU32(0xE0001FFC, 0x1 Items)
T3898 379:818.144   CPU_ReadMem(4 bytes @ 0xE0001FFC)
T3898 379:818.464   Data:  B1 00 00 00
T3898 379:818.496   Debug reg: DWT_CID[3]
T3898 379:818.496 - 0.356ms returns 1 (0x1)
T3898 379:818.496 JLINK_ReadMemU32(0xE0002FD0, 0x1 Items)
T3898 379:818.496   CPU_ReadMem(4 bytes @ 0xE0002FD0)
T3898 379:818.816   Data:  04 00 00 00
T3898 379:818.816   Debug reg: FP_PID4
T3898 379:818.816 - 0.335ms returns 1 (0x1)
T3898 379:818.816 JLINK_ReadMemU32(0xE0002FD4, 0x1 Items)
T3898 379:818.848   CPU_ReadMem(4 bytes @ 0xE0002FD4)
T3898 379:819.168   Data:  00 00 00 00
T3898 379:819.168   Debug reg: FP_PID5
T3898 379:819.168 - 0.326ms returns 1 (0x1)
T3898 379:819.168 JLINK_ReadMemU32(0xE0002FD8, 0x1 Items)
T3898 379:819.200   CPU_ReadMem(4 bytes @ 0xE0002FD8)
T3898 379:819.488   Data:  00 00 00 00
T3898 379:819.488   Debug reg: FP_PID6
T3898 379:819.488 - 0.332ms returns 1 (0x1)
T3898 379:819.520 JLINK_ReadMemU32(0xE0002FDC, 0x1 Items)
T3898 379:819.584   CPU_ReadMem(4 bytes @ 0xE0002FDC)
T3898 379:819.872   Data:  00 00 00 00
T3898 379:819.872   Debug reg: FP_PID7
T3898 379:819.904 - 0.382ms returns 1 (0x1)
T3898 379:819.904 JLINK_ReadMemU32(0xE0002FE0, 0x1 Items)
T3898 379:819.904   CPU_ReadMem(4 bytes @ 0xE0002FE0)
T3898 379:820.224   Data:  03 00 00 00
T3898 379:820.256   Debug reg: FP_PID[0]
T3898 379:820.256 - 0.354ms returns 1 (0x1)
T3898 379:820.256 JLINK_ReadMemU32(0xE0002FE4, 0x1 Items)
T3898 379:820.256   CPU_ReadMem(4 bytes @ 0xE0002FE4)
T3898 379:820.608   Data:  B0 00 00 00
T3898 379:820.608   Debug reg: FP_PID[1]
T3898 379:820.608 - 0.333ms returns 1 (0x1)
T3898 379:820.608 JLINK_ReadMemU32(0xE0002FE8, 0x1 Items)
T3898 379:820.608   CPU_ReadMem(4 bytes @ 0xE0002FE8)
T3898 379:820.928   Data:  2B 00 00 00
T3898 379:820.928   Debug reg: FP_PID[2]
T3898 379:820.928 - 0.336ms returns 1 (0x1)
T3898 379:820.960 JLINK_ReadMemU32(0xE0002FEC, 0x1 Items)
T3898 379:820.960   CPU_ReadMem(4 bytes @ 0xE0002FEC)
T3898 379:821.344   Data:  00 00 00 00
T3898 379:821.344   Debug reg: FP_PID[3]
T3898 379:821.344 - 0.399ms returns 1 (0x1)
T3898 379:821.344 JLINK_ReadMemU32(0xE0002FF0, 0x1 Items)
T3898 379:821.376   CPU_ReadMem(4 bytes @ 0xE0002FF0)
T3898 379:821.696   Data:  0D 00 00 00
T3898 379:821.696   Debug reg: FP_CID[0]
T3898 379:821.696 - 0.349ms returns 1 (0x1)
T3898 379:821.696 JLINK_ReadMemU32(0xE0002FF4, 0x1 Items)
T3898 379:821.696   CPU_ReadMem(4 bytes @ 0xE0002FF4)
T3898 379:822.016   Data:  E0 00 00 00
T3898 379:822.016   Debug reg: FP_CID[1]
T3898 379:822.016 - 0.336ms returns 1 (0x1)
T3898 379:822.048 JLINK_ReadMemU32(0xE0002FF8, 0x1 Items)
T3898 379:822.048   CPU_ReadMem(4 bytes @ 0xE0002FF8)
T3898 379:822.400   Data:  05 00 00 00
T3898 379:822.400   Debug reg: FP_CID[2]
T3898 379:822.400 - 0.350ms returns 1 (0x1)
T3898 379:822.400 JLINK_ReadMemU32(0xE0002FFC, 0x1 Items)
T3898 379:822.400   CPU_ReadMem(4 bytes @ 0xE0002FFC)
T3898 379:822.752   Data:  B1 00 00 00
T3898 379:822.752   Debug reg: FP_CID[3]
T3898 379:822.752 - 0.351ms returns 1 (0x1)
T3898 379:822.784 JLINK_ReadMemU32(0xE0000FD0, 0x1 Items)
T3898 379:822.784   CPU_ReadMem(4 bytes @ 0xE0000FD0)
T3898 379:823.264   Data:  04 00 00 00
T3898 379:823.264   Debug reg: ITM_PID4
T3898 379:823.264 - 0.497ms returns 1 (0x1)
T3898 379:823.264 JLINK_ReadMemU32(0xE0000FD4, 0x1 Items)
T3898 379:823.296   CPU_ReadMem(4 bytes @ 0xE0000FD4)
T3898 379:823.584   Data:  00 00 00 00
T3898 379:823.584   Debug reg: ITM_PID5
T3898 379:823.584 - 0.332ms returns 1 (0x1)
T3898 379:823.616 JLINK_ReadMemU32(0xE0000FD8, 0x1 Items)
T3898 379:823.616   CPU_ReadMem(4 bytes @ 0xE0000FD8)
T3898 379:823.968   Data:  00 00 00 00
T3898 379:823.968   Debug reg: ITM_PID6
T3898 379:824.000 - 0.385ms returns 1 (0x1)
T3898 379:824.000 JLINK_ReadMemU32(0xE0000FDC, 0x1 Items)
T3898 379:824.000   CPU_ReadMem(4 bytes @ 0xE0000FDC)
T3898 379:824.416   Data:  00 00 00 00
T3898 379:824.416   Debug reg: ITM_PID7
T3898 379:824.416 - 0.413ms returns 1 (0x1)
T3898 379:824.416 JLINK_ReadMemU32(0xE0000FE0, 0x1 Items)
T3898 379:824.448   CPU_ReadMem(4 bytes @ 0xE0000FE0)
T3898 379:824.736   Data:  01 00 00 00
T3898 379:824.736   Debug reg: ITM_PID[0]
T3898 379:824.768 - 0.338ms returns 1 (0x1)
T3898 379:824.768 JLINK_ReadMemU32(0xE0000FE4, 0x1 Items)
T3898 379:824.768   CPU_ReadMem(4 bytes @ 0xE0000FE4)
T3898 379:825.120   Data:  B0 00 00 00
T3898 379:825.120   Debug reg: ITM_PID[1]
T3898 379:825.120 - 0.364ms returns 1 (0x1)
T3898 379:825.120 JLINK_ReadMemU32(0xE0000FE8, 0x1 Items)
T3898 379:825.120   CPU_ReadMem(4 bytes @ 0xE0000FE8)
T3898 379:825.536   Data:  3B 00 00 00
T3898 379:825.536   Debug reg: ITM_PID[2]
T3898 379:825.568 - 0.417ms returns 1 (0x1)
T3898 379:825.568 JLINK_ReadMemU32(0xE0000FEC, 0x1 Items)
T3898 379:825.568   CPU_ReadMem(4 bytes @ 0xE0000FEC)
T3898 379:825.856   Data:  00 00 00 00
T3898 379:825.856   Debug reg: ITM_PID[3]
T3898 379:825.888 - 0.325ms returns 1 (0x1)
T3898 379:825.888 JLINK_ReadMemU32(0xE0000FF0, 0x1 Items)
T3898 379:825.888   CPU_ReadMem(4 bytes @ 0xE0000FF0)
T3898 379:826.240   Data:  0D 00 00 00
T3898 379:826.240   Debug reg: ITM_CID[0]
T3898 379:826.240 - 0.365ms returns 1 (0x1)
T3898 379:826.240 JLINK_ReadMemU32(0xE0000FF4, 0x1 Items)
T3898 379:826.240   CPU_ReadMem(4 bytes @ 0xE0000FF4)
T3898 379:826.624   Data:  E0 00 00 00
T3898 379:826.624   Debug reg: ITM_CID[1]
T3898 379:826.624 - 0.385ms returns 1 (0x1)
T3898 379:826.656 JLINK_ReadMemU32(0xE0000FF8, 0x1 Items)
T3898 379:826.656   CPU_ReadMem(4 bytes @ 0xE0000FF8)
T3898 379:826.976   Data:  05 00 00 00
T3898 379:827.008   Debug reg: ITM_CID[2]
T3898 379:827.008 - 0.339ms returns 1 (0x1)
T3898 379:827.008 JLINK_ReadMemU32(0xE0000FFC, 0x1 Items)
T3898 379:827.040   CPU_ReadMem(4 bytes @ 0xE0000FFC)
T3898 379:827.360   Data:  B1 00 00 00
T3898 379:827.360   Debug reg: ITM_CID[3]
T3898 379:827.360 - 0.322ms returns 1 (0x1)
T3898 379:827.360 JLINK_ReadMemU32(0xE0040FD0, 0x1 Items)
T3898 379:827.360   CPU_ReadMem(4 bytes @ 0xE0040FD0)
T3898 379:827.680   Data:  04 00 00 00
T3898 379:827.680   Debug reg: TPIU_PID4
T3898 379:827.680 - 0.331ms returns 1 (0x1)
T3898 379:827.680 JLINK_ReadMemU32(0xE0040FD4, 0x1 Items)
T3898 379:827.712   CPU_ReadMem(4 bytes @ 0xE0040FD4)
T3898 379:828.032   Data:  00 00 00 00
T3898 379:828.032   Debug reg: TPIU_PID5
T3898 379:828.032 - 0.338ms returns 1 (0x1)
T3898 379:828.032 JLINK_ReadMemU32(0xE0040FD8, 0x1 Items)
T3898 379:828.032   CPU_ReadMem(4 bytes @ 0xE0040FD8)
T3898 379:828.352   Data:  00 00 00 00
T3898 379:828.352   Debug reg: TPIU_PID6
T3898 379:828.352 - 0.310ms returns 1 (0x1)
T3898 379:828.352 JLINK_ReadMemU32(0xE0040FDC, 0x1 Items)
T3898 379:828.352   CPU_ReadMem(4 bytes @ 0xE0040FDC)
T3898 379:828.672   Data:  00 00 00 00
T3898 379:828.672   Debug reg: TPIU_PID7
T3898 379:828.672 - 0.329ms returns 1 (0x1)
T3898 379:828.672 JLINK_ReadMemU32(0xE0040FE0, 0x1 Items)
T3898 379:828.672   CPU_ReadMem(4 bytes @ 0xE0040FE0)
T3898 379:828.992   Data:  A1 00 00 00
T3898 379:829.024   Debug reg: TPIU_PID[0]
T3898 379:829.024 - 0.323ms returns 1 (0x1)
T3898 379:829.024 JLINK_ReadMemU32(0xE0040FE4, 0x1 Items)
T3898 379:829.024   CPU_ReadMem(4 bytes @ 0xE0040FE4)
T3898 379:829.312   Data:  B9 00 00 00
T3898 379:829.312   Debug reg: TPIU_PID[1]
T3898 379:829.344 - 0.319ms returns 1 (0x1)
T3898 379:829.344 JLINK_ReadMemU32(0xE0040FE8, 0x1 Items)
T3898 379:829.344   CPU_ReadMem(4 bytes @ 0xE0040FE8)
T3898 379:829.664   Data:  0B 00 00 00
T3898 379:829.664   Debug reg: TPIU_PID[2]
T3898 379:829.664 - 0.314ms returns 1 (0x1)
T3898 379:829.664 JLINK_ReadMemU32(0xE0040FEC, 0x1 Items)
T3898 379:829.696   CPU_ReadMem(4 bytes @ 0xE0040FEC)
T3898 379:829.984   Data:  00 00 00 00
T3898 379:829.984   Debug reg: TPIU_PID[3]
T3898 379:830.016 - 0.337ms returns 1 (0x1)
T3898 379:830.016 JLINK_ReadMemU32(0xE0040FF0, 0x1 Items)
T3898 379:830.016   CPU_ReadMem(4 bytes @ 0xE0040FF0)
T3898 379:830.368   Data:  0D 00 00 00
T3898 379:830.400   Debug reg: TPIU_CID[0]
T3898 379:830.400 - 0.386ms returns 1 (0x1)
T3898 379:830.400 JLINK_ReadMemU32(0xE0040FF4, 0x1 Items)
T3898 379:830.400   CPU_ReadMem(4 bytes @ 0xE0040FF4)
T3898 379:830.720   Data:  90 00 00 00
T3898 379:830.720   Debug reg: TPIU_CID[1]
T3898 379:830.720 - 0.337ms returns 1 (0x1)
T3898 379:830.752 JLINK_ReadMemU32(0xE0040FF8, 0x1 Items)
T3898 379:830.752   CPU_ReadMem(4 bytes @ 0xE0040FF8)
T3898 379:831.104   Data:  05 00 00 00
T3898 379:831.104   Debug reg: TPIU_CID[2]
T3898 379:831.104 - 0.379ms returns 1 (0x1)
T3898 379:831.136 JLINK_ReadMemU32(0xE0040FFC, 0x1 Items)
T3898 379:831.136   CPU_ReadMem(4 bytes @ 0xE0040FFC)
T3898 379:831.488   Data:  B1 00 00 00
T3898 379:831.488   Debug reg: TPIU_CID[3]
T3898 379:831.488 - 0.369ms returns 1 (0x1)
T3898 379:831.488 JLINK_ReadMemU32(0xE0041FD0, 0x1 Items)
T3898 379:831.520   CPU_ReadMem(4 bytes @ 0xE0041FD0)
T3898 379:831.840   Data:  00 00 00 00
T3898 379:831.840   Debug reg: ETM_PID4
T3898 379:831.840 - 0.335ms returns 1 (0x1)
T3898 379:831.872 JLINK_ReadMemU32(0xE0041FD4, 0x1 Items)
T3898 379:831.872   CPU_ReadMem(4 bytes @ 0xE0041FD4)
T3898 379:832.192   Data:  00 00 00 00
T3898 379:832.192   Debug reg: ETM_PID5
T3898 379:832.224 - 0.357ms returns 1 (0x1)
T3898 379:832.224 JLINK_ReadMemU32(0xE0041FD8, 0x1 Items)
T3898 379:832.224   CPU_ReadMem(4 bytes @ 0xE0041FD8)
T3898 379:832.512   Data:  00 00 00 00
T3898 379:832.544   Debug reg: ETM_PID6
T3898 379:832.544 - 0.333ms returns 1 (0x1)
T3898 379:832.544 JLINK_ReadMemU32(0xE0041FDC, 0x1 Items)
T3898 379:832.544   CPU_ReadMem(4 bytes @ 0xE0041FDC)
T3898 379:832.864   Data:  00 00 00 00
T3898 379:832.896   Debug reg: ETM_PID7
T3898 379:832.896 - 0.324ms returns 1 (0x1)
T3898 379:832.896 JLINK_ReadMemU32(0xE0041FE0, 0x1 Items)
T3898 379:832.896   CPU_ReadMem(4 bytes @ 0xE0041FE0)
T3898 379:833.216   Data:  00 00 00 00
T3898 379:833.216   Debug reg: ETM_PID[0]
T3898 379:833.216 - 0.334ms returns 1 (0x1)
T3898 379:833.216 JLINK_ReadMemU32(0xE0041FE4, 0x1 Items)
T3898 379:833.248   CPU_ReadMem(4 bytes @ 0xE0041FE4)
T3898 379:833.568   Data:  00 00 00 00
T3898 379:833.600   Debug reg: ETM_PID[1]
T3898 379:833.600 - 0.370ms returns 1 (0x1)
T3898 379:833.600 JLINK_ReadMemU32(0xE0041FE8, 0x1 Items)
T3898 379:833.600   CPU_ReadMem(4 bytes @ 0xE0041FE8)
T3898 379:833.920   Data:  00 00 00 00
T3898 379:833.920   Debug reg: ETM_PID[2]
T3898 379:833.920 - 0.324ms returns 1 (0x1)
T3898 379:833.920 JLINK_ReadMemU32(0xE0041FEC, 0x1 Items)
T3898 379:833.920   CPU_ReadMem(4 bytes @ 0xE0041FEC)
T3898 379:834.272   Data:  00 00 00 00
T3898 379:834.272   Debug reg: ETM_PID[3]
T3898 379:834.272 - 0.332ms returns 1 (0x1)
T3898 379:834.272 JLINK_ReadMemU32(0xE0041FF0, 0x1 Items)
T3898 379:834.272   CPU_ReadMem(4 bytes @ 0xE0041FF0)
T3898 379:834.560   Data:  00 00 00 00
T3898 379:834.592   Debug reg: ETM_CID[0]
T3898 379:834.592 - 0.321ms returns 1 (0x1)
T3898 379:834.592 JLINK_ReadMemU32(0xE0041FF4, 0x1 Items)
T3898 379:834.592   CPU_ReadMem(4 bytes @ 0xE0041FF4)
T3898 379:834.912   Data:  00 00 00 00
T3898 379:834.944   Debug reg: ETM_CID[1]
T3898 379:834.944 - 0.327ms returns 1 (0x1)
T3898 379:834.944 JLINK_ReadMemU32(0xE0041FF8, 0x1 Items)
T3898 379:834.944   CPU_ReadMem(4 bytes @ 0xE0041FF8)
T3898 379:835.232   Data:  00 00 00 00
T3898 379:835.232   Debug reg: ETM_CID[2]
T3898 379:835.264 - 0.323ms returns 1 (0x1)
T3898 379:835.264 JLINK_ReadMemU32(0xE0041FFC, 0x1 Items)
T3898 379:835.264   CPU_ReadMem(4 bytes @ 0xE0041FFC)
T3898 379:835.584   Data:  00 00 00 00
T3898 379:835.584   Debug reg: ETM_CID[3]
T3898 379:835.584 - 0.333ms returns 1 (0x1)
T3898 379:835.584 JLINK_GetEmuCaps()
T3898 379:835.584 - 0.004ms returns 0xF8EA5A73
T3898 379:835.616 JLINK_GetEmuCaps()
T3898 379:835.616 - 0.003ms returns 0xF8EA5A73
T3898 379:835.616 JLINK_GetEmuCaps()
T3898 379:835.648 - 0.003ms returns 0xF8EA5A73
T3898 379:835.648 JLINK_GetEmuCaps()
T3898 379:835.648 - 0.003ms returns 0xF8EA5A73
T3898 379:835.648 JLINK_GetEmuCaps()
T3898 379:835.648 - 0.003ms returns 0xF8EA5A73
T3898 379:835.648 JLINK_GetEmuCaps()
T3898 379:835.648 - 0.003ms returns 0xF8EA5A73
T3898 379:835.680 JLINK_GetEmuCaps()
T3898 379:835.680 - 0.003ms returns 0xF8EA5A73
T3898 379:835.680 JLINK_GetEmuCaps()
T3898 379:835.680 - 0.003ms returns 0xF8EA5A73
T3898 379:835.680 JLINK_GetEmuCaps()
T3898 379:835.680 - 0.003ms returns 0xF8EA5A73
T3898 379:835.712 JLINK_GetEmuCaps()
T3898 379:835.712 - 0.003ms returns 0xF8EA5A73
T3898 379:835.712 JLINK_GetEmuCaps()
T3898 379:835.712 - 0.003ms returns 0xF8EA5A73
T3898 379:835.712 JLINK_GetEmuCaps()
T3898 379:835.712 - 0.003ms returns 0xF8EA5A73
T3898 379:835.712 JLINK_GetEmuCaps()
T3898 379:835.712 - 0.003ms returns 0xF8EA5A73
T3898 379:835.712 JLINK_GetEmuCaps()
T3898 379:835.712 - 0.003ms returns 0xF8EA5A73
T3898 379:835.712 JLINK_GetEmuCaps()
T3898 379:835.712 - 0.003ms returns 0xF8EA5A73
T3898 379:835.712 JLINK_GetEmuCaps()
T3898 379:835.712 - 0.003ms returns 0xF8EA5A73
T3898 379:835.744 JLINK_GetEmuCaps()
T3898 379:835.744 - 0.003ms returns 0xF8EA5A73
T3898 379:835.744 JLINK_GetEmuCaps()
T3898 379:835.744 - 0.004ms returns 0xF8EA5A73
T3898 379:835.744 JLINK_GetEmuCaps()
T3898 379:835.776 - 0.003ms returns 0xF8EA5A73
T3898 379:835.776 JLINK_GetEmuCaps()
T3898 379:835.776 - 0.003ms returns 0xF8EA5A73
T3898 379:836.064 JLINK_ReadMemU32(0xE0041000, 0x1 Items)
T3898 379:836.096   CPU_ReadMem(4 bytes @ 0xE0041000)
T3898 379:836.416   Data:  00 00 00 00
T3898 379:836.416   Debug reg: ETM_CR
T3898 379:836.416 - 0.348ms returns 1 (0x1)
T3898 379:836.448 JLINK_WriteU32(0xE0041000, 0x00000400)
T3898 379:836.448   Debug reg: ETM_CR
T3898 379:836.704   CPU_WriteMem(4 bytes @ 0xE0041000)
T3898 379:837.120 - 0.689ms returns 0 (0x00000000)
T3898 379:837.120 JLINK_ReadMemU32(0xE0041004, 0x1 Items)
T3898 379:837.120   CPU_ReadMem(4 bytes @ 0xE0041004)
T3898 379:837.504   Data:  00 00 00 00
T3898 379:837.504   Debug reg: ETMCCR
T3898 379:837.504 - 0.358ms returns 1 (0x1)
T3898 379:838.144 JLINK_SWO_Control(JLINKARM_SWO_CMD_GET_SPEED_INFO, ...)
T3898 379:838.400 - 0.263ms returns 0x00
T3898 379:838.400 JLINK_ReadMemU32(0xE0001004, 0x1 Items)
T3898 379:838.400   CPU_ReadMem(4 bytes @ 0xE0001004)
T3898 379:838.720   Data:  8B 7A 16 00
T3898 379:838.720   Debug reg: DWT_CYCCNT
T3898 379:838.752 - 0.337ms returns 1 (0x1)
T3898 379:839.040 JLINK_EMU_HasCapEx(0x00000025)
T3898 379:839.040 - 0.009ms returns 0
T3898 379:839.040 JLINK_EMU_COM_Read(Channel = 0x10001, NumBytes = 0x0C)
T3898 379:839.040    -- EMUCOM is not supported by connected emulator
T3898 379:839.040 - 0.009ms returns -1
T3898 379:842.272 JLINK_GetEmuCaps()
T3898 379:842.304 - 0.012ms returns 0xF8EA5A73
T3898 379:842.304 JLINK_GetEmuCaps()
T3898 379:842.304 - 0.004ms returns 0xF8EA5A73
T3898 379:845.792 JLINK_CORESIGHT_WriteAPDPReg(DP reg 0x02, 0x00000000)
T3898 379:846.112 - 0.333ms returns 0
T3898 379:846.112 JLINK_CORESIGHT_ReadAPDPReg(AP reg 0x00)
T3898 379:846.400   Value=0x23000052
T3898 379:846.432 - 0.286ms returns 0
T3898 379:846.432 JLINK_CORESIGHT_WriteAPDPReg(AP reg 0x00, 0x23000042)
T3898 379:846.656 - 0.245ms returns 0
T3898 379:846.688 JLINK_CORESIGHT_WriteAPDPReg(AP reg 0x01, 0xE0042008)
T3898 379:846.880 - 0.214ms returns 0
T3898 379:846.912 JLINK_CORESIGHT_ReadAPDPReg(AP reg 0x03)
T3898 379:847.168   Value=0x00001000
T3898 379:847.168 - 0.265ms returns 0
T3898 379:847.232 JLINK_CORESIGHT_WriteAPDPReg(DP reg 0x02, 0x00000000)
T3898 379:847.456 - 0.226ms returns 0
T3898 379:847.456 JLINK_CORESIGHT_ReadAPDPReg(AP reg 0x00)
T3898 379:847.712   Value=0x23000042
T3898 379:847.712 - 0.260ms returns 0
T3898 379:847.744 JLINK_CORESIGHT_WriteAPDPReg(AP reg 0x01, 0xE0042008)
T3898 379:847.936 - 0.204ms returns 0
T3898 379:847.936 JLINK_CORESIGHT_WriteAPDPReg(AP reg 0x03, 0x00001800)
T3898 379:848.160 - 0.220ms returns 0
T3898 379:848.192 JLINK_ExecCommand("InvalidateCache", ...). 
T3898 379:848.224 - 0.012ms returns 0x00
T3898 379:848.224 JLINK_ReadMemU32(0x40023C14, 0x1 Items)
T3898 379:848.224   CPU_ReadMem(4 bytes @ 0x40023C14)
T3898 379:848.608   Data:  ED AA FF 2F
T3898 379:848.608 - 0.385ms returns 1 (0x1)
T3898 379:848.640 JLINK_ReadMemU32(0x40023800, 0x1 Items)
T3898 379:848.640   CPU_ReadMem(4 bytes @ 0x40023800)
T3898 379:848.960   Data:  83 7B 00 00
T3898 379:848.960 - 0.337ms returns 1 (0x1)
T3898 379:848.992 JLINK_ReadMemU32(0x40023808, 0x1 Items)
T3898 379:848.992   CPU_ReadMem(4 bytes @ 0x40023808)
T3898 379:849.344   Data:  00 00 00 00
T3898 379:849.344 - 0.352ms returns 1 (0x1)
T3898 379:849.376 JLINK_ReadMemU32(0x4002380C, 0x1 Items)
T3898 379:849.376   CPU_ReadMem(4 bytes @ 0x4002380C)
T3898 379:849.664   Data:  00 00 00 00
T3898 379:849.664 - 0.326ms returns 1 (0x1)
T3898 379:849.696 JLINK_WriteMem(0x4002380C, 0x4 Bytes, ...)
T3898 379:849.696   Data:  00 00 00 00
T3898 379:849.984   CPU_WriteMem(4 bytes @ 0x4002380C)
T3898 379:850.336 - 0.628ms returns 0x4
T3898 379:850.368 JLINK_WriteMem(0x40023800, 0x4 Bytes, ...)
T3898 379:850.368   Data:  83 7B 00 00
T3898 379:850.368   CPU_WriteMem(4 bytes @ 0x40023800)
T3898 379:850.752 - 0.381ms returns 0x4
T3898 379:850.816 JLINK_WriteMem(0x40023808, 0x4 Bytes, ...)
T3898 379:850.816   Data:  00 00 00 00
T3898 379:850.848   CPU_WriteMem(4 bytes @ 0x40023808)
T3898 379:851.200 - 0.372ms returns 0x4
T3898 379:851.232 JLINK_ReadMemU32(0x40023C14, 0x1 Items)
T3898 379:851.232   CPU_ReadMem(4 bytes @ 0x40023C14)
T3898 379:851.552   Data:  ED AA FF 2F
T3898 379:851.584 - 0.332ms returns 1 (0x1)
T3898 379:851.584 JLINK_ReadMemU32(0x40023C00, 0x1 Items)
T3898 379:851.584   CPU_ReadMem(4 bytes @ 0x40023C00)
T3898 379:851.904   Data:  00 00 00 00
T3898 379:851.904 - 0.329ms returns 1 (0x1)
T3898 379:851.936 JLINK_ReadMemU32(0x40023C10, 0x1 Items)
T3898 379:851.936   CPU_ReadMem(4 bytes @ 0x40023C10)
T3898 379:852.352   Data:  00 00 00 80
T3898 379:852.352 - 0.407ms returns 1 (0x1)
T3898 379:852.352 JLINK_WriteMem(0x40023C04, 0x4 Bytes, ...)
T3898 379:852.384   Data:  23 01 67 45
T3898 379:852.384   CPU_WriteMem(4 bytes @ 0x40023C04)
T3898 379:852.736 - 0.357ms returns 0x4
T3898 379:852.736 JLINK_WriteMem(0x40023C04, 0x4 Bytes, ...)
T3898 379:852.736   Data:  AB 89 EF CD
T3898 379:852.768   CPU_WriteMem(4 bytes @ 0x40023C04)
T3898 379:853.120 - 0.380ms returns 0x4
T3898 379:853.152 JLINK_WriteMem(0x40023C00, 0x4 Bytes, ...)
T3898 379:853.152   Data:  00 00 00 00
T3898 379:853.152   CPU_WriteMem(4 bytes @ 0x40023C00)
T3898 379:853.504 - 0.374ms returns 0x4
T3898 379:853.536 JLINK_WriteMem(0x40023C10, 0x4 Bytes, ...)
T3898 379:853.536   Data:  00 00 00 00
T3898 379:853.568   CPU_WriteMem(4 bytes @ 0x40023C10)
T3898 379:853.920 - 0.379ms returns 0x4
T3898 379:853.952 JLINK_WriteMem(0x40023C0C, 0x4 Bytes, ...)
T3898 379:853.952   Data:  D3 01 00 00
T3898 379:853.952   CPU_WriteMem(4 bytes @ 0x40023C0C)
T3898 379:854.400 - 0.441ms returns 0x4
T3898 379:854.912 JLINK_GetSpeed()
T3898 379:854.912 - 0.008ms returns 4000
T3898 379:854.912 JLINK_SetMaxSpeed()
T3898 379:855.040 - 0.113ms 
T3898 379:855.040 JLINK_GetSpeed()
T3898 379:855.040 - 0.004ms returns 2000
T3898 379:855.040 JLINK_BeginDownload(Flags = 0x00000003)
T3898 379:855.040 - 0.005ms 
T3898 379:869.568 JLINK_WriteMem(0x20000000, 0x20 Bytes, ...)
T3898 379:869.600   Data:  00 00 02 20 0D 03 00 20 00 00 00 00 00 00 00 00 ...
T3898 379:869.920   CPU_WriteMem(32 bytes @ 0x20000000)
T3898 379:870.624 - 1.063ms returns 0x20
T3898 379:870.656 JLINK_WriteMem(0x20000020, 0x3E0 Bytes, ...)
T3898 379:870.656   Data:  04 00 00 00 00 40 00 00 01 00 00 00 00 00 01 00 ...
T3898 379:870.656   CPU_WriteMem(992 bytes @ 0x20000020)
T3898 379:878.112 - 7.456ms returns 0x3E0
T3898 379:878.336 JLINK_ReadMemU32(0xE000EDFC, 0x1 Items)
T3898 379:878.336   CPU_ReadMem(4 bytes @ 0xE000EDFC)
T3898 379:878.720   Data:  00 00 00 01
T3898 379:878.720   Debug reg: DEMCR
T3898 379:878.720 - 0.416ms returns 1 (0x1)
T3898 379:878.752 JLINK_WriteU32(0xE000EDFC, 0x01000000)
T3898 379:878.752   Debug reg: DEMCR
T3898 379:878.752 - 0.013ms returns 0 (0x00000000)
T3898 379:878.752 JLINK_ReadMemU32(0xE0001004, 0x1 Items)
T3898 379:878.784   Data:  8B 7A 16 00
T3898 379:878.784   Debug reg: DWT_CYCCNT
T3898 379:878.784 - 0.015ms returns 1 (0x1)
T3898 379:878.784 JLINK_ReadMemU32(0x20000000, 0x1 Items)
T3898 379:878.816   CPU_ReadMem(64 bytes @ 0x20000000)
T3898 379:879.680    -- Updating C cache (64 bytes @ 0x20000000)
T3898 379:879.680    -- Read from C cache (4 bytes @ 0x20000000)
T3898 379:879.680   Data:  00 00 02 20
T3898 379:879.680 - 0.894ms returns 1 (0x1)
T3898 379:879.712 JLINK_ReadMemU32(0x20000004, 0x1 Items)
T3898 379:879.712    -- Read from C cache (4 bytes @ 0x20000004)
T3898 379:879.712   Data:  0D 03 00 20
T3898 379:879.712 - 0.014ms returns 1 (0x1)
T3898 379:879.744 JLINK_ReadRegs(NumRegs = 1)
T3898 379:879.744     CFBP (20) = 0x00              
T3898 379:879.744 - 0.011ms returns 0x00
T3898 379:879.744 JLINK_WriteReg(MSP, 0x20020000)
T3898 379:879.744 - 0.011ms returns 0
T3898 379:879.744 JLINK_WriteReg(R15 (PC), 0x2000030C)
T3898 379:879.744 - 0.006ms returns 0
T3898 379:879.776 JLINK_ReadRegs(NumRegs = 1)
T3898 379:879.776     XPSR (16) = 0x1000000         
T3898 379:879.776 - 0.014ms returns 0x00
T3898 379:879.776 JLINK_WriteReg(XPSR, 0x01000000)
T3898 379:879.808 - 0.004ms returns 0
T3898 379:879.808 JLINK_ReadRegs(NumRegs = 1)
T3898 379:879.808     R15 (PC) (15) = 0x2000030C        
T3898 379:879.808 - 0.009ms returns 0x00
T3898 379:880.960 JLINK_WriteMem(0x2001FEE8, 0x14 Bytes, ...)
T3898 379:880.992   Data:  00 00 00 08 00 00 00 00 00 C0 00 08 00 04 00 20 ...
T3898 379:880.992   CPU_WriteMem(20 bytes @ 0x2001FEE8)
T3898 379:881.536 - 0.573ms returns 0x14
T3898 379:881.632 JLINK_WriteReg(R15 (PC), 0x2000030C)
T3898 379:881.632 - 0.008ms returns 0
T3898 379:881.632 JLINK_ReadRegs(NumRegs = 1)
T3898 379:881.632     XPSR (16) = 0x1000000         
T3898 379:881.664 - 0.010ms returns 0x00
T3898 379:881.664 JLINK_WriteReg(XPSR, 0x01000000)
T3898 379:881.664 - 0.004ms returns 0
T3898 379:881.696 JLINK_SetBPEx(Addr = 0x20000100, Type = 0xFFFFFFF2)
T3898 379:881.696   CPU_ReadMem(2 bytes @ 0x20000100)
T3898 379:882.112 - 0.422ms returns 0x00000001
T3898 379:882.144 JLINK_WriteVectorCatch(0x00000000)
T3898 379:882.144 - 0.007ms returns 0
T112C 379:883.200 JLINK_ReadRegs(NumRegs = 1)
T112C 379:883.264     R15 (PC) (15) = 0x2000030C        
T112C 379:883.264 - 0.046ms returns 0x00
T112C 379:883.264 JLINK_ReadRegs(NumRegs = 1)
T112C 379:883.296     R15 (PC) (15) = 0x2000030C        
T112C 379:883.296 - 0.010ms returns 0x00
T112C 379:883.328 JLINK_ReadMemU16(0x2000030C, 0x1 Items)
T112C 379:883.328   CPU_ReadMem(64 bytes @ 0x20000300)
T112C 379:884.224    -- Updating C cache (64 bytes @ 0x20000300)
T112C 379:884.224    -- Read from C cache (2 bytes @ 0x2000030C)
T112C 379:884.224   Data:  FF F7
T112C 379:884.224 - 0.935ms returns 1 (0x1)
T112C 379:884.224 JLINK_ReadRegs(NumRegs = 1)
T112C 379:884.256     R15 (PC) (15) = 0x2000030C        
T112C 379:884.256 - 0.012ms returns 0x00
T112C 379:884.256 JLINK_ReadRegs(NumRegs = 1)
T112C 379:884.256     R15 (PC) (15) = 0x2000030C        
T112C 379:884.256 - 0.009ms returns 0x00
T112C 379:884.288 JLINK_WriteVectorCatch(0x00000000)
T112C 379:884.288 - 0.006ms returns 0
T112C 379:884.320 JLINK_ReadMemU32(0xE000EDFC, 0x1 Items)
T112C 379:884.320   Data:  00 00 00 01
T112C 379:884.320   Debug reg: DEMCR
T112C 379:884.320 - 0.015ms returns 1 (0x1)
T112C 379:884.352 JLINK_WriteU32(0xE000EDFC, 0x01000000)
T112C 379:884.352   Debug reg: DEMCR
T112C 379:884.352   CPU_WriteMem(2 bytes @ 0x20000100)
T112C 379:884.800 - 0.459ms returns 0 (0x00000000)
T112C 379:884.800 JLINK_ReadMemU32(0xE0002000, 0x1 Items)
T112C 379:884.800   CPU_ReadMem(4 bytes @ 0xE0002000)
T112C 379:885.216   Data:  61 02 00 00
T112C 379:885.216 - 0.405ms returns 1 (0x1)
T112C 379:885.216 JLINK_ReadMemU32(0xE0002000, 0x1 Items)
T112C 379:885.216   CPU_ReadMem(4 bytes @ 0xE0002000)
T112C 379:885.632   Data:  61 02 00 00
T112C 379:885.632 - 0.399ms returns 1 (0x1)
T112C 379:885.632 JLINK_ReadMemU32(0xE0001000, 0x1 Items)
T112C 379:885.632   CPU_ReadMem(4 bytes @ 0xE0001000)
T112C 379:886.016   Data:  01 00 00 40
T112C 379:886.048   Debug reg: DWT_CTRL
T112C 379:886.048 - 0.427ms returns 1 (0x1)
T112C 379:886.048 JLINK_ReadMemU32(0xE000EDFC, 0x1 Items)
T112C 379:886.048   Data:  00 00 00 01
T112C 379:886.048   Debug reg: DEMCR
T112C 379:886.080 - 0.013ms returns 1 (0x1)
T112C 379:886.080 JLINK_WriteU32(0xE000EDFC, 0x01000000)
T112C 379:886.080   Debug reg: DEMCR
T112C 379:886.080 - 0.009ms returns 0 (0x00000000)
T112C 379:886.080 JLINK_WriteU32(0xE0001028, 0x00000000)
T112C 379:886.112   Debug reg: DWT_FUNC[0]
T112C 379:886.112 - 0.010ms returns 0 (0x00000000)
T112C 379:886.112 JLINK_WriteU32(0xE0001038, 0x00000000)
T112C 379:886.112   Debug reg: DWT_FUNC[1]
T112C 379:886.112 - 0.009ms returns 0 (0x00000000)
T112C 379:886.144 JLINK_WriteU32(0xE0001048, 0x00000000)
T112C 379:886.144   Debug reg: DWT_FUNC[2]
T112C 379:886.144 - 0.008ms returns 0 (0x00000000)
T112C 379:886.144 JLINK_WriteU32(0xE0001058, 0x00000000)
T112C 379:886.144   Debug reg: DWT_FUNC[3]
T112C 379:886.144 - 0.014ms returns 0 (0x00000000)
T112C 379:886.144 JLINK_Go()
T112C 379:886.176   CPU_ReadMem(4 bytes @ 0xE0001000)
T112C 379:886.560   CPU_WriteMem(4 bytes @ 0xE0001028)
T112C 379:886.592   CPU_WriteMem(4 bytes @ 0xE0001038)
T112C 379:886.592   CPU_WriteMem(4 bytes @ 0xE0001048)
T112C 379:886.592   CPU_WriteMem(4 bytes @ 0xE0001058)
T112C 379:886.592   CPU_WriteMem(4 bytes @ 0xE0002008)
T112C 379:886.624   CPU_WriteMem(4 bytes @ 0xE000200C)
T112C 379:886.624   CPU_WriteMem(4 bytes @ 0xE0002010)
T112C 379:886.624   CPU_WriteMem(4 bytes @ 0xE0002014)
T112C 379:886.624   CPU_WriteMem(4 bytes @ 0xE0002018)
T112C 379:886.624   CPU_WriteMem(4 bytes @ 0xE000201C)
T112C 379:890.688   Memory map 'after startup completion point' is active
T112C 379:890.688 - 4.525ms 
T112C 379:891.776 JLINK_GetHWStatus(...)
T112C 379:892.000 - 0.198ms returns 0
T112C 379:892.000 JLINK_IsHalted()
T112C 379:895.744   CPU_ReadMem(2 bytes @ 0x20000100)
T112C 379:896.128 - 4.127ms returns TRUE
T112C 379:896.160 JLINK_ReadRegs(NumRegs = 1)
T112C 379:896.160     R15 (PC) (15) = 0x20000100        
T112C 379:896.160 - 0.012ms returns 0x00
T112C 379:896.192 JLINK_ReadMemU16(0x20000100, 0x1 Items)
T112C 379:896.192    -- Merging existing BP[0]: 0xE7FE @ 0x20000100
T112C 379:896.192    -- Merging existing BP[0]: 0xE7FE @ 0x20000100
T112C 379:896.192   Data:  FE E7
T112C 379:896.192 - 0.019ms returns 1 (0x1)
T112C 379:896.224 JLINK_ReadMemU32(0xE000EDFC, 0x1 Items)
T112C 379:896.224   Data:  00 00 00 01
T112C 379:896.224   Debug reg: DEMCR
T112C 379:896.224 - 0.013ms returns 1 (0x1)
T112C 379:896.256 JLINK_WriteU32(0xE000EDFC, 0x01000000)
T112C 379:896.256   Debug reg: DEMCR
T112C 379:896.256 - 0.011ms returns 0 (0x00000000)
T112C 379:896.256 JLINK_WriteVectorCatch(0x00000000)
T112C 379:896.256 - 0.004ms returns 0
T112C 379:896.256 JLINK_WriteU32(0xE0001028, 0x00000000)
T112C 379:896.256   Debug reg: DWT_FUNC[0]
T112C 379:896.256 - 0.009ms returns 0 (0x00000000)
T112C 379:896.256 JLINK_WriteU32(0xE0001038, 0x00000000)
T112C 379:896.256   Debug reg: DWT_FUNC[1]
T112C 379:896.256 - 0.009ms returns 0 (0x00000000)
T112C 379:896.288 JLINK_WriteU32(0xE0001048, 0x00000000)
T112C 379:896.288   Debug reg: DWT_FUNC[2]
T112C 379:896.288 - 0.008ms returns 0 (0x00000000)
T112C 379:896.288 JLINK_WriteU32(0xE0001058, 0x00000000)
T112C 379:896.288   Debug reg: DWT_FUNC[3]
T112C 379:896.288 - 0.008ms returns 0 (0x00000000)
T112C 379:896.384 JLINK_ReadRegs(NumRegs = 1)
T112C 379:896.384     R15 (PC) (15) = 0x20000100        
T112C 379:896.416 - 0.022ms returns 0x00
T112C 379:896.480 JLINK_ReadMemU32(0x2001FEE8, 0x5 Items)
T112C 379:896.480   CPU_ReadMem(64 bytes @ 0x2001FEC0)
T112C 379:897.344    -- Updating C cache (64 bytes @ 0x2001FEC0)
T112C 379:897.376    -- Read from C cache (20 bytes @ 0x2001FEE8)
T112C 379:897.376   Data:  00 00 00 08 00 00 00 00 00 C0 00 08 00 04 00 20 ...
T112C 379:897.376 - 0.903ms returns 5 (0x5)
T112C 379:897.632 JLINK_WriteMem(0x20000400, 0x8 Bytes, ...)
T112C 379:897.664   Data:  00 C0 00 08 00 40 00 00
T112C 379:897.664   CPU_WriteMem(8 bytes @ 0x20000400)
T112C 379:898.112 - 0.478ms returns 0x8
T112C 379:898.144 JLINK_WriteMem(0x2001FEE8, 0x14 Bytes, ...)
T112C 379:898.144   Data:  00 00 00 00 01 00 00 00 00 00 00 00 00 04 00 20 ...
T112C 379:898.144   CPU_WriteMem(20 bytes @ 0x2001FEE8)
T112C 379:898.688 - 0.534ms returns 0x14
T112C 379:898.688 JLINK_WriteReg(R15 (PC), 0x2000031C)
T112C 379:898.688 - 0.005ms returns 0
T112C 379:898.688 JLINK_ReadRegs(NumRegs = 1)
T112C 379:898.688     XPSR (16) = 0x41000000        
T112C 379:898.688 - 0.009ms returns 0x00
T112C 379:898.688 JLINK_WriteReg(XPSR, 0x41000000)
T112C 379:898.720 - 0.004ms returns 0
T112C 379:898.816 JLINK_ReadRegs(NumRegs = 1)
T112C 379:898.816     R15 (PC) (15) = 0x2000031C        
T112C 379:898.816 - 0.033ms returns 0x00
T112C 379:898.816 JLINK_ReadRegs(NumRegs = 1)
T112C 379:898.816     R15 (PC) (15) = 0x2000031C        
T112C 379:898.816 - 0.008ms returns 0x00
T112C 379:898.848 JLINK_ReadMemU16(0x2000031C, 0x1 Items)
T112C 379:898.848   CPU_ReadMem(64 bytes @ 0x20000300)
T112C 379:899.712    -- Updating C cache (64 bytes @ 0x20000300)
T112C 379:899.712    -- Read from C cache (2 bytes @ 0x2000031C)
T112C 379:899.712   Data:  FF F7
T112C 379:899.744 - 0.896ms returns 1 (0x1)
T112C 379:899.744 JLINK_ReadRegs(NumRegs = 1)
T112C 379:899.744     R15 (PC) (15) = 0x2000031C        
T112C 379:899.744 - 0.009ms returns 0x00
T112C 379:899.744 JLINK_ReadRegs(NumRegs = 1)
T112C 379:899.776     R15 (PC) (15) = 0x2000031C        
T112C 379:899.776 - 0.008ms returns 0x00
T112C 379:899.776 JLINK_WriteVectorCatch(0x00000000)
T112C 379:899.776 - 0.005ms returns 0
T112C 379:899.808 JLINK_ReadMemU32(0xE000EDFC, 0x1 Items)
T112C 379:899.808   Data:  00 00 00 01
T112C 379:899.808   Debug reg: DEMCR
T112C 379:899.808 - 0.013ms returns 1 (0x1)
T112C 379:899.808 JLINK_WriteU32(0xE000EDFC, 0x01000000)
T112C 379:899.840   Debug reg: DEMCR
T112C 379:899.840 - 0.010ms returns 0 (0x00000000)
T112C 379:899.840 JLINK_WriteU32(0xE0001028, 0x00000000)
T112C 379:899.840   Debug reg: DWT_FUNC[0]
T112C 379:899.840 - 0.009ms returns 0 (0x00000000)
T112C 379:899.840 JLINK_WriteU32(0xE0001038, 0x00000000)
T112C 379:899.840   Debug reg: DWT_FUNC[1]
T112C 379:899.840 - 0.008ms returns 0 (0x00000000)
T112C 379:899.840 JLINK_WriteU32(0xE0001048, 0x00000000)
T112C 379:899.840   Debug reg: DWT_FUNC[2]
T112C 379:899.840 - 0.008ms returns 0 (0x00000000)
T112C 379:899.872 JLINK_WriteU32(0xE0001058, 0x00000000)
T112C 379:899.872   Debug reg: DWT_FUNC[3]
T112C 379:899.872 - 0.008ms returns 0 (0x00000000)
T112C 379:899.872 JLINK_Go()
T112C 379:899.904   CPU_ReadMem(4 bytes @ 0xE0001000)
T112C 379:900.288   CPU_WriteMem(4 bytes @ 0xE0001028)
T112C 379:900.288   CPU_WriteMem(4 bytes @ 0xE0001038)
T112C 379:900.320   CPU_WriteMem(4 bytes @ 0xE0001048)
T112C 379:900.320   CPU_WriteMem(4 bytes @ 0xE0001058)
T112C 379:902.656 - 2.748ms 
T112C 379:903.808 JLINK_GetHWStatus(...)
T112C 379:903.968 - 0.184ms returns 0
T112C 379:904.000 JLINK_IsHalted()
T112C 379:904.416 - 0.409ms returns FALSE
T112C 379:905.792 JLINK_GetHWStatus(...)
T112C 379:905.984 - 0.185ms returns 0
T112C 379:905.984 JLINK_IsHalted()
T112C 379:906.336 - 0.349ms returns FALSE
T112C 379:907.840 JLINK_GetHWStatus(...)
T112C 379:908.032 - 0.178ms returns 0
T112C 379:908.032 JLINK_IsHalted()
T112C 379:908.384 - 0.367ms returns FALSE
T112C 379:909.824 JLINK_GetHWStatus(...)
T112C 379:910.112 - 0.282ms returns 0
T112C 379:910.112 JLINK_IsHalted()
T112C 379:910.528 - 0.399ms returns FALSE
T112C 379:911.840 JLINK_GetHWStatus(...)
T112C 379:912.000 - 0.177ms returns 0
T112C 379:912.000 JLINK_IsHalted()
T112C 379:912.384 - 0.383ms returns FALSE
T112C 379:913.824 JLINK_GetHWStatus(...)
T112C 379:914.016 - 0.180ms returns 0
T112C 379:914.016 JLINK_IsHalted()
T112C 379:914.400 - 0.378ms returns FALSE
T112C 379:916.352 JLINK_GetHWStatus(...)
T112C 379:916.512 - 0.169ms returns 0
T112C 379:916.512 JLINK_IsHalted()
T112C 379:916.896 - 0.388ms returns FALSE
T112C 379:918.336 JLINK_GetHWStatus(...)
T112C 379:918.528 - 0.176ms returns 0
T112C 379:918.528 JLINK_IsHalted()
T112C 379:918.912 - 0.395ms returns FALSE
T112C 379:920.320 JLINK_GetHWStatus(...)
T112C 379:920.512 - 0.178ms returns 0
T112C 379:920.512 JLINK_IsHalted()
T112C 379:920.864 - 0.346ms returns FALSE
T112C 379:922.336 JLINK_GetHWStatus(...)
T112C 379:922.528 - 0.186ms returns 0
T112C 379:922.528 JLINK_IsHalted()
T112C 379:922.912 - 0.391ms returns FALSE
T112C 379:924.320 JLINK_GetHWStatus(...)
T112C 379:924.512 - 0.176ms returns 0
T112C 379:924.544 JLINK_IsHalted()
T112C 379:924.864 - 0.348ms returns FALSE
T112C 379:926.400 JLINK_GetHWStatus(...)
T112C 379:926.592 - 0.194ms returns 0
T112C 379:926.592 JLINK_IsHalted()
T112C 379:926.944 - 0.351ms returns FALSE
T112C 379:928.384 JLINK_GetHWStatus(...)
T112C 379:928.576 - 0.177ms returns 0
T112C 379:928.608 JLINK_IsHalted()
T112C 379:928.928 - 0.351ms returns FALSE
T112C 379:930.400 JLINK_GetHWStatus(...)
T112C 379:930.560 - 0.187ms returns 0
T112C 379:930.560 JLINK_IsHalted()
T112C 379:930.976 - 0.396ms returns FALSE
T112C 379:932.384 JLINK_GetHWStatus(...)
T112C 379:932.576 - 0.176ms returns 0
T112C 379:932.576 JLINK_IsHalted()
T112C 379:932.928 - 0.345ms returns FALSE
T112C 379:934.400 JLINK_GetHWStatus(...)
T112C 379:934.560 - 0.183ms returns 0
T112C 379:934.560 JLINK_IsHalted()
T112C 379:934.976 - 0.393ms returns FALSE
T112C 379:936.576 JLINK_GetHWStatus(...)
T112C 379:936.768 - 0.199ms returns 0
T112C 379:936.768 JLINK_IsHalted()
T112C 379:937.152 - 0.374ms returns FALSE
T112C 379:938.432 JLINK_GetHWStatus(...)
T112C 379:938.624 - 0.191ms returns 0
T112C 379:938.624 JLINK_IsHalted()
T112C 379:939.040 - 0.398ms returns FALSE
T112C 379:940.416 JLINK_GetHWStatus(...)
T112C 379:940.640 - 0.192ms returns 0
T112C 379:940.640 JLINK_IsHalted()
T112C 379:940.992 - 0.355ms returns FALSE
T112C 379:942.624 JLINK_GetHWStatus(...)
T112C 379:942.816 - 0.176ms returns 0
T112C 379:942.816 JLINK_IsHalted()
T112C 379:943.200 - 0.372ms returns FALSE
T112C 379:944.640 JLINK_GetHWStatus(...)
T112C 379:944.800 - 0.174ms returns 0
T112C 379:944.800 JLINK_IsHalted()
T112C 379:945.184 - 0.386ms returns FALSE
T112C 379:946.656 JLINK_GetHWStatus(...)
T112C 379:946.816 - 0.178ms returns 0
T112C 379:946.816 JLINK_IsHalted()
T112C 379:947.232 - 0.415ms returns FALSE
T112C 379:948.640 JLINK_GetHWStatus(...)
T112C 379:948.864 - 0.204ms returns 0
T112C 379:948.864 JLINK_IsHalted()
T112C 379:949.248 - 0.382ms returns FALSE
T112C 379:951.168 JLINK_GetHWStatus(...)
T112C 379:951.424 - 0.274ms returns 0
T112C 379:951.424 JLINK_IsHalted()
T112C 379:951.808 - 0.396ms returns FALSE
T112C 379:953.216 JLINK_GetHWStatus(...)
T112C 379:953.440 - 0.201ms returns 0
T112C 379:953.440 JLINK_IsHalted()
